=== v2.8.1 Waveshare Logic Emulation (host) ===

--- TEST 1: Boot LED (should be RED, wire [32,0,0]) ---
[LED] neopixelWrite(pin=38, r=0, g=32, b=0) -> wire [32,0,0]
PASS: Boot LED pin=38
PASS: Boot LED wire=[32,0,0] (RED)
PASS: connected=false (RED state)

--- TEST 2: Link LED (should be GREEN, wire [0,32,0]) ---
[LED] neopixelWrite(pin=38, r=32, g=0, b=0) -> wire [0,32,0]
PASS: Link LED wire=[0,32,0] (GREEN)
PASS: connected=true (GREEN state)

--- TEST 3: JBD protocol (0x03/0x04/0x05) ---
PASS: 0x03 request parses
PASS: 0x03 reply exists
PASS: 0x03 reply checksum valid
PASS: PollTracker notes valid request

--- TEST 4: Silence on writes/unknown/garbage ---
PASS: Write frame parses
PASS: Write gets NO reply (silent)
PASS: Unknown reg gets NO reply (silent)
PASS: Garbage (bad checksum) rejected

--- TEST 5: Random noise robustness ---
  10000 random bytes -> 0 parsed frames
PASS: Noise does not falsely trigger link

--- TEST 6: TCA9554 relay sequence (0x01-0xFF) ---
[TCA] write reg=0x01 val=0x00
[TCA] write reg=0x03 val=0x00
PASS: TCA init: OUTPUT=0x00
[TCA] write reg=0x01 val=0x01
[TCA] write reg=0x01 val=0x02
[TCA] write reg=0x01 val=0x03
[TCA] write reg=0x01 val=0x04
[TCA] write reg=0x01 val=0x05
[TCA] write reg=0x01 val=0x06
[TCA] write reg=0x01 val=0x07
[TCA] write reg=0x01 val=0x08
[TCA] write reg=0x01 val=0x09
[TCA] write reg=0x01 val=0x0A
[TCA] write reg=0x01 val=0x0B
[TCA] write reg=0x01 val=0x0C
[TCA] write reg=0x01 val=0x0D
[TCA] write reg=0x01 val=0x0E
[TCA] write reg=0x01 val=0x0F
[TCA] write reg=0x01 val=0x10
[TCA] write reg=0x01 val=0x11
[TCA] write reg=0x01 val=0x12
[TCA] write reg=0x01 val=0x13
[TCA] write reg=0x01 val=0x14
[TCA] write reg=0x01 val=0x15
[TCA] write reg=0x01 val=0x16
[TCA] write reg=0x01 val=0x17
[TCA] write reg=0x01 val=0x18
[TCA] write reg=0x01 val=0x19
[TCA] write reg=0x01 val=0x1A
[TCA] write reg=0x01 val=0x1B
[TCA] write reg=0x01 val=0x1C
[TCA] write reg=0x01 val=0x1D
[TCA] write reg=0x01 val=0x1E
[TCA] write reg=0x01 val=0x1F
[TCA] write reg=0x01 val=0x20
[TCA] write reg=0x01 val=0x21
[TCA] write reg=0x01 val=0x22
[TCA] write reg=0x01 val=0x23
[TCA] write reg=0x01 val=0x24
[TCA] write reg=0x01 val=0x25
[TCA] write reg=0x01 val=0x26
[TCA] write reg=0x01 val=0x27
[TCA] write reg=0x01 val=0x28
[TCA] write reg=0x01 val=0x29
[TCA] write reg=0x01 val=0x2A
[TCA] write reg=0x01 val=0x2B
[TCA] write reg=0x01 val=0x2C
[TCA] write reg=0x01 val=0x2D
[TCA] write reg=0x01 val=0x2E
[TCA] write reg=0x01 val=0x2F
[TCA] write reg=0x01 val=0x30
[TCA] write reg=0x01 val=0x31
[TCA] write reg=0x01 val=0x32
[TCA] write reg=0x01 val=0x33
[TCA] write reg=0x01 val=0x34
[TCA] write reg=0x01 val=0x35
[TCA] write reg=0x01 val=0x36
[TCA] write reg=0x01 val=0x37
[TCA] write reg=0x01 val=0x38
[TCA] write reg=0x01 val=0x39
[TCA] write reg=0x01 val=0x3A
[TCA] write reg=0x01 val=0x3B
[TCA] write reg=0x01 val=0x3C
[TCA] write reg=0x01 val=0x3D
[TCA] write reg=0x01 val=0x3E
[TCA] write reg=0x01 val=0x3F
[TCA] write reg=0x01 val=0x40
[TCA] write reg=0x01 val=0x41
[TCA] write reg=0x01 val=0x42
[TCA] write reg=0x01 val=0x43
[TCA] write reg=0x01 val=0x44
[TCA] write reg=0x01 val=0x45
[TCA] write reg=0x01 val=0x46
[TCA] write reg=0x01 val=0x47
[TCA] write reg=0x01 val=0x48
[TCA] write reg=0x01 val=0x49
[TCA] write reg=0x01 val=0x4A
[TCA] write reg=0x01 val=0x4B
[TCA] write reg=0x01 val=0x4C
[TCA] write reg=0x01 val=0x4D
[TCA] write reg=0x01 val=0x4E
[TCA] write reg=0x01 val=0x4F
[TCA] write reg=0x01 val=0x50
[TCA] write reg=0x01 val=0x51
[TCA] write reg=0x01 val=0x52
[TCA] write reg=0x01 val=0x53
[TCA] write reg=0x01 val=0x54
[TCA] write reg=0x01 val=0x55
[TCA] write reg=0x01 val=0x56
[TCA] write reg=0x01 val=0x57
[TCA] write reg=0x01 val=0x58
[TCA] write reg=0x01 val=0x59
[TCA] write reg=0x01 val=0x5A
[TCA] write reg=0x01 val=0x5B
[TCA] write reg=0x01 val=0x5C
[TCA] write reg=0x01 val=0x5D
[TCA] write reg=0x01 val=0x5E
[TCA] write reg=0x01 val=0x5F
[TCA] write reg=0x01 val=0x60
[TCA] write reg=0x01 val=0x61
[TCA] write reg=0x01 val=0x62
[TCA] write reg=0x01 val=0x63
[TCA] write reg=0x01 val=0x64
[TCA] write reg=0x01 val=0x65
[TCA] write reg=0x01 val=0x66
[TCA] write reg=0x01 val=0x67
[TCA] write reg=0x01 val=0x68
[TCA] write reg=0x01 val=0x69
[TCA] write reg=0x01 val=0x6A
[TCA] write reg=0x01 val=0x6B
[TCA] write reg=0x01 val=0x6C
[TCA] write reg=0x01 val=0x6D
[TCA] write reg=0x01 val=0x6E
[TCA] write reg=0x01 val=0x6F
[TCA] write reg=0x01 val=0x70
[TCA] write reg=0x01 val=0x71
[TCA] write reg=0x01 val=0x72
[TCA] write reg=0x01 val=0x73
[TCA] write reg=0x01 val=0x74
[TCA] write reg=0x01 val=0x75
[TCA] write reg=0x01 val=0x76
[TCA] write reg=0x01 val=0x77
[TCA] write reg=0x01 val=0x78
[TCA] write reg=0x01 val=0x79
[TCA] write reg=0x01 val=0x7A
[TCA] write reg=0x01 val=0x7B
[TCA] write reg=0x01 val=0x7C
[TCA] write reg=0x01 val=0x7D
[TCA] write reg=0x01 val=0x7E
[TCA] write reg=0x01 val=0x7F
[TCA] write reg=0x01 val=0x80
[TCA] write reg=0x01 val=0x81
[TCA] write reg=0x01 val=0x82
[TCA] write reg=0x01 val=0x83
[TCA] write reg=0x01 val=0x84
[TCA] write reg=0x01 val=0x85
[TCA] write reg=0x01 val=0x86
[TCA] write reg=0x01 val=0x87
[TCA] write reg=0x01 val=0x88
[TCA] write reg=0x01 val=0x89
[TCA] write reg=0x01 val=0x8A
[TCA] write reg=0x01 val=0x8B
[TCA] write reg=0x01 val=0x8C
[TCA] write reg=0x01 val=0x8D
[TCA] write reg=0x01 val=0x8E
[TCA] write reg=0x01 val=0x8F
[TCA] write reg=0x01 val=0x90
[TCA] write reg=0x01 val=0x91
[TCA] write reg=0x01 val=0x92
[TCA] write reg=0x01 val=0x93
[TCA] write reg=0x01 val=0x94
[TCA] write reg=0x01 val=0x95
[TCA] write reg=0x01 val=0x96
[TCA] write reg=0x01 val=0x97
[TCA] write reg=0x01 val=0x98
[TCA] write reg=0x01 val=0x99
[TCA] write reg=0x01 val=0x9A
[TCA] write reg=0x01 val=0x9B
[TCA] write reg=0x01 val=0x9C
[TCA] write reg=0x01 val=0x9D
[TCA] write reg=0x01 val=0x9E
[TCA] write reg=0x01 val=0x9F
[TCA] write reg=0x01 val=0xA0
[TCA] write reg=0x01 val=0xA1
[TCA] write reg=0x01 val=0xA2
[TCA] write reg=0x01 val=0xA3
[TCA] write reg=0x01 val=0xA4
[TCA] write reg=0x01 val=0xA5
[TCA] write reg=0x01 val=0xA6
[TCA] write reg=0x01 val=0xA7
[TCA] write reg=0x01 val=0xA8
[TCA] write reg=0x01 val=0xA9
[TCA] write reg=0x01 val=0xAA
[TCA] write reg=0x01 val=0xAB
[TCA] write reg=0x01 val=0xAC
[TCA] write reg=0x01 val=0xAD
[TCA] write reg=0x01 val=0xAE
[TCA] write reg=0x01 val=0xAF
[TCA] write reg=0x01 val=0xB0
[TCA] write reg=0x01 val=0xB1
[TCA] write reg=0x01 val=0xB2
[TCA] write reg=0x01 val=0xB3
[TCA] write reg=0x01 val=0xB4
[TCA] write reg=0x01 val=0xB5
[TCA] write reg=0x01 val=0xB6
[TCA] write reg=0x01 val=0xB7
[TCA] write reg=0x01 val=0xB8
[TCA] write reg=0x01 val=0xB9
[TCA] write reg=0x01 val=0xBA
[TCA] write reg=0x01 val=0xBB
[TCA] write reg=0x01 val=0xBC
[TCA] write reg=0x01 val=0xBD
[TCA] write reg=0x01 val=0xBE
[TCA] write reg=0x01 val=0xBF
[TCA] write reg=0x01 val=0xC0
[TCA] write reg=0x01 val=0xC1
[TCA] write reg=0x01 val=0xC2
[TCA] write reg=0x01 val=0xC3
[TCA] write reg=0x01 val=0xC4
[TCA] write reg=0x01 val=0xC5
[TCA] write reg=0x01 val=0xC6
[TCA] write reg=0x01 val=0xC7
[TCA] write reg=0x01 val=0xC8
[TCA] write reg=0x01 val=0xC9
[TCA] write reg=0x01 val=0xCA
[TCA] write reg=0x01 val=0xCB
[TCA] write reg=0x01 val=0xCC
[TCA] write reg=0x01 val=0xCD
[TCA] write reg=0x01 val=0xCE
[TCA] write reg=0x01 val=0xCF
[TCA] write reg=0x01 val=0xD0
[TCA] write reg=0x01 val=0xD1
[TCA] write reg=0x01 val=0xD2
[TCA] write reg=0x01 val=0xD3
[TCA] write reg=0x01 val=0xD4
[TCA] write reg=0x01 val=0xD5
[TCA] write reg=0x01 val=0xD6
[TCA] write reg=0x01 val=0xD7
[TCA] write reg=0x01 val=0xD8
[TCA] write reg=0x01 val=0xD9
[TCA] write reg=0x01 val=0xDA
[TCA] write reg=0x01 val=0xDB
[TCA] write reg=0x01 val=0xDC
[TCA] write reg=0x01 val=0xDD
[TCA] write reg=0x01 val=0xDE
[TCA] write reg=0x01 val=0xDF
[TCA] write reg=0x01 val=0xE0
[TCA] write reg=0x01 val=0xE1
[TCA] write reg=0x01 val=0xE2
[TCA] write reg=0x01 val=0xE3
[TCA] write reg=0x01 val=0xE4
[TCA] write reg=0x01 val=0xE5
[TCA] write reg=0x01 val=0xE6
[TCA] write reg=0x01 val=0xE7
[TCA] write reg=0x01 val=0xE8
[TCA] write reg=0x01 val=0xE9
[TCA] write reg=0x01 val=0xEA
[TCA] write reg=0x01 val=0xEB
[TCA] write reg=0x01 val=0xEC
[TCA] write reg=0x01 val=0xED
[TCA] write reg=0x01 val=0xEE
[TCA] write reg=0x01 val=0xEF
[TCA] write reg=0x01 val=0xF0
[TCA] write reg=0x01 val=0xF1
[TCA] write reg=0x01 val=0xF2
[TCA] write reg=0x01 val=0xF3
[TCA] write reg=0x01 val=0xF4
[TCA] write reg=0x01 val=0xF5
[TCA] write reg=0x01 val=0xF6
[TCA] write reg=0x01 val=0xF7
[TCA] write reg=0x01 val=0xF8
[TCA] write reg=0x01 val=0xF9
[TCA] write reg=0x01 val=0xFA
[TCA] write reg=0x01 val=0xFB
[TCA] write reg=0x01 val=0xFC
[TCA] write reg=0x01 val=0xFD
[TCA] write reg=0x01 val=0xFE
[TCA] write reg=0x01 val=0xFF
PASS: Relay sequence completed 0x01-0xFF
  Total TCA writes: 257

--- TEST 7: GPIO assignments (Waveshare) ---
PASS: DI1 (SPOOF) = GPIO4
PASS: DI2 (WIFI_KILL) = GPIO5
PASS: BOOT = GPIO0
PASS: RGB = GPIO38
PASS: RS485 TX = GPIO17
PASS: RS485 RX = GPIO18
PASS: I2C SDA = GPIO42
PASS: I2C SCL = GPIO41

--- TEST 8: 0x04/0x05 responses ---
PASS: 0x04 reply exists (35 bytes)
PASS: 0x05 reply exists (19 bytes)

--- TEST 9: DI1 Spoof (two-stage) ---
PASS: Spoof stage 1 = 100.0V (10000mV)
PASS: Spoof stage 2 = 88.8V (8880mV)
PASS: Spoof stage 1 checksum valid

--- TEST 10: OTA variant gating ---
PASS: Waveshare variant defined

--- TEST 11: DI2 WiFi kill (active LOW) ---
PASS: DI2 active LOW (ground = AP off)

--- TEST 12: BOOT button (GPIO0) ---
PASS: BOOT = GPIO0

=== RESULTS: 32 PASS, 0 FAIL ===
